
T1A18 000:281 SEGGER J-Link V4.98e Log File (0001ms, 0265ms total)
T1A18 000:281 DLL Compiled: May  5 2015 11:00:52 (0001ms, 0265ms total)
T1A18 000:281 Logging started @ 2016-09-16 17:08 (0001ms, 0265ms total)
T1A18 000:282 JLINK_SetWarnOutHandler(...) (0000ms, 0265ms total)
T1A18 000:282 JLINK_OpenEx(...)
Firmware: J-Link ARM V8 compiled Nov 28 2014 13:44:46
Hardware: V8.00
S/N: 304423265
Feature(s): RDI,FlashDL,FlashBP,JFlash,GDBFULL  returns O.K. (0268ms, 0533ms total)
T1A18 000:550 JLINK_SetErrorOutHandler(...) (0000ms, 0533ms total)
T1A18 000:550 JLINK_ExecCommand("ProjectFile = "C:\Users\Ry\OneDrive\hf\Ò£¿ØÆ÷\STM32F103-DEMO_FreeRTOS\Project\MDK-ARM\JLinkSettings.ini"", ...)  returns 0x00 (0023ms, 0556ms total)
T1A18 000:573 JLINK_ExecCommand("Device = STM32F103RE", ...)Device "STM32F103RE" selected.  returns 0x00 (0001ms, 0557ms total)
T1A18 000:574 JLINK_ExecCommand("DisableConnectionTimeout", ...)  returns 0x01 (0000ms, 0557ms total)
T1A18 000:574 JLINK_GetHardwareVersion()  returns 0x13880 (0000ms, 0557ms total)
T1A18 000:574 JLINK_GetDLLVersion()  returns 49805 (0000ms, 0557ms total)
T1A18 000:574 JLINK_GetFirmwareString(...) (0000ms, 0557ms total)
T1A18 000:575 JLINK_GetDLLVersion()  returns 49805 (0000ms, 0557ms total)
T1A18 000:575 JLINK_GetCompileDateTime() (0000ms, 0557ms total)
T1A18 000:575 JLINK_GetFirmwareString(...) (0000ms, 0557ms total)
T1A18 000:575 JLINK_GetHardwareVersion()  returns 0x13880 (0000ms, 0557ms total)
T1A18 000:576 JLINK_TIF_Select(JLINKARM_TIF_SWD)  returns 0x00 (0000ms, 0557ms total)
T1A18 000:576 JLINK_SetSpeed(50000) (0000ms, 0557ms total)
T1A18 000:576 JLINK_GetId() >0x108 TIF>Found SWD-DP with ID 0x1BA01477 >0x0D TIF> >0x28 TIF> >0x0D TIF> >0x28 TIF> >0x0D TIF> >0x21 TIF> >0x0D TIF> >0x28 TIF> >0x0D TIF> >0x28 TIF> >0x0D TIF> >0x28 TIF> >0x0D TIF> >0x21 TIF> >0x0D TIF> >0x21 TIF> >0x0D TIF> >0x28 TIF> >0x0D TIF> >0x21 TIF> >0x0D TIF> >0x21 TIF> >0x108 TIF>Found SWD-DP with ID 0x1BA01477 >0x0D TIF> >0x21 TIF> >0x0D TIF> >0x28 TIF> >0x0D TIF> >0x28 TIF> >0x0D TIF> >0x21 TIF> >0x0D TIF> >0x28 TIF> >0x0D TIF> >0x21 TIF> >0x0D TIF> >0x21 TIF>
 >0x0D TIF> >0x21 TIF> >0x0D TIF> >0x21 TIF> >0x0D TIF> >0x28 TIF> >0x0D TIF> >0x28 TIF> >0x0D TIF> >0x21 TIF> >0x0D TIF> >0x28 TIF> >0x0D TIF> >0x28 TIF> >0x0D TIF> >0x28 TIF> >0x0D TIF> >0x21 TIF> >0x0D TIF> >0x21 TIF> >0x0D TIF> >0x28 TIF> >0x0D TIF> >0x21 TIF> >0x0D TIF> >0x21 TIF>Found Cortex-M3 r1p1, Little endian. -- CPU_WriteMem(4 bytes @ 0xE0002000) -- CPU_ReadMem(4 bytes @ 0xE000EDF0) -- CPU_ReadMem(4 bytes @ 0xE0002000)FPUnit: 6 code (BP) slots and 2 literal slots
 -- CPU_ReadMem(4 bytes @ 0xE000EDFC) -- CPU_ReadMem(4 bytes @ 0xE0001000) -- CPU_WriteMem(4 bytes @ 0xE0001000) -- CPU_ReadMem(4 bytes @ 0xE000ED88) -- CPU_WriteMem(4 bytes @ 0xE000ED88) -- CPU_ReadMem(4 bytes @ 0xE000ED88) -- CPU_WriteMem(4 bytes @ 0xE000ED88)CoreSight components:ROMTbl 0 @ E00FF000 -- CPU_ReadMem(16 bytes @ 0xE00FF000) -- CPU_ReadMem(16 bytes @ 0xE000EFF0) -- CPU_ReadMem(16 bytes @ 0xE000EFE0)ROMTbl 0 [0]: FFF0F000, CID: B105E00D, PID: 001BB000 SCS
 -- CPU_ReadMem(16 bytes @ 0xE0001FF0) -- CPU_ReadMem(16 bytes @ 0xE0001FE0)ROMTbl 0 [1]: FFF02000, CID: B105E00D, PID: 001BB002 DWT -- CPU_ReadMem(16 bytes @ 0xE0002FF0) -- CPU_ReadMem(16 bytes @ 0xE0002FE0)ROMTbl 0 [2]: FFF03000, CID: B105E00D, PID: 000BB003 FPB -- CPU_ReadMem(16 bytes @ 0xE0000FF0) -- CPU_ReadMem(16 bytes @ 0xE0000FE0)ROMTbl 0 [3]: FFF01000, CID: B105E00D, PID: 001BB001 ITM -- CPU_ReadMem(16 bytes @ 0xE00FF010) -- CPU_ReadMem(16 bytes @ 0xE0040FF0)
 -- CPU_ReadMem(16 bytes @ 0xE0040FE0)ROMTbl 0 [4]: FFF41000, CID: B105900D, PID: 001BB923 TPIU-Lite -- CPU_ReadMem(16 bytes @ 0xE0041FF0) -- CPU_ReadMem(16 bytes @ 0xE0041FE0)ROMTbl 0 [5]: FFF42000, CID: B105900D, PID: 101BB924 ETM-M3 >0x0D TIF> >0x21 TIF>  returns 0x1BA01477 (0026ms, 0583ms total)
T1A18 000:602 JLINK_GetDLLVersion()  returns 49805 (0000ms, 0583ms total)
T1A18 000:602 JLINK_CORE_GetFound()  returns 0x30000FF (0000ms, 0583ms total)
T1A18 000:602 JLINK_GetDebugInfo(0x100) -- Value=0xE00FF003  returns 0x00 (0000ms, 0583ms total)
T1A18 000:602 JLINK_ReadMem (0xE00FF000, 0x0020 Bytes, ...) -- CPU is running -- CPU_ReadMem(32 bytes @ 0xE00FF000) - Data: 03 F0 F0 FF 03 20 F0 FF 03 30 F0 FF 03 10 F0 FF ...  returns 0x00 (0000ms, 0583ms total)
T1A18 000:603 JLINK_ReadMem (0xE000EFF0, 0x0010 Bytes, ...) -- CPU is running -- CPU_ReadMem(16 bytes @ 0xE000EFF0) - Data: 0D 00 00 00 E0 00 00 00 05 00 00 00 B1 00 00 00  returns 0x00 (0000ms, 0584ms total)
T1A18 000:603 JLINK_ReadMem (0xE000EFD0, 0x0020 Bytes, ...) -- CPU is running -- CPU_ReadMem(32 bytes @ 0xE000EFD0) - Data: 04 00 00 00 00 00 00 00 00 00 00 00 00 00 00 00 ...  returns 0x00 (0000ms, 0584ms total)
T1A18 000:603 JLINK_ReadMem (0xE0001FF0, 0x0010 Bytes, ...) -- CPU is running -- CPU_ReadMem(16 bytes @ 0xE0001FF0) - Data: 0D 00 00 00 E0 00 00 00 05 00 00 00 B1 00 00 00  returns 0x00 (0001ms, 0585ms total)
T1A18 000:604 JLINK_ReadMem (0xE0001FD0, 0x0020 Bytes, ...) -- CPU is running -- CPU_ReadMem(32 bytes @ 0xE0001FD0) - Data: 04 00 00 00 00 00 00 00 00 00 00 00 00 00 00 00 ...  returns 0x00 (0000ms, 0585ms total)
T1A18 000:604 JLINK_ReadMem (0xE0002FF0, 0x0010 Bytes, ...) -- CPU is running -- CPU_ReadMem(16 bytes @ 0xE0002FF0) - Data: 0D 00 00 00 E0 00 00 00 05 00 00 00 B1 00 00 00  returns 0x00 (0001ms, 0586ms total)
T1A18 000:605 JLINK_ReadMem (0xE0002FD0, 0x0020 Bytes, ...) -- CPU is running -- CPU_ReadMem(32 bytes @ 0xE0002FD0) - Data: 04 00 00 00 00 00 00 00 00 00 00 00 00 00 00 00 ...  returns 0x00 (0000ms, 0586ms total)
T1A18 000:605 JLINK_ReadMem (0xE0000FF0, 0x0010 Bytes, ...) -- CPU is running -- CPU_ReadMem(16 bytes @ 0xE0000FF0) - Data: 0D 00 00 00 E0 00 00 00 05 00 00 00 B1 00 00 00  returns 0x00 (0001ms, 0587ms total)
T1A18 000:606 JLINK_ReadMem (0xE0000FD0, 0x0020 Bytes, ...) -- CPU is running -- CPU_ReadMem(32 bytes @ 0xE0000FD0) - Data: 04 00 00 00 00 00 00 00 00 00 00 00 00 00 00 00 ...  returns 0x00 (0000ms, 0587ms total)
T1A18 000:606 JLINK_ReadMem (0xE0040FF0, 0x0010 Bytes, ...) -- CPU is running -- CPU_ReadMem(16 bytes @ 0xE0040FF0) - Data: 0D 00 00 00 90 00 00 00 05 00 00 00 B1 00 00 00  returns 0x00 (0000ms, 0587ms total)
T1A18 000:606 JLINK_ReadMem (0xE0040FD0, 0x0020 Bytes, ...) -- CPU is running -- CPU_ReadMem(32 bytes @ 0xE0040FD0) - Data: 04 00 00 00 00 00 00 00 00 00 00 00 00 00 00 00 ...  returns 0x00 (0000ms, 0587ms total)
T1A18 000:606 JLINK_ReadMem (0xE0041FF0, 0x0010 Bytes, ...) -- CPU is running -- CPU_ReadMem(16 bytes @ 0xE0041FF0) - Data: 0D 00 00 00 90 00 00 00 05 00 00 00 B1 00 00 00  returns 0x00 (0002ms, 0589ms total)
T1A18 000:608 JLINK_ReadMem (0xE0041FD0, 0x0020 Bytes, ...) -- CPU is running -- CPU_ReadMem(32 bytes @ 0xE0041FD0) - Data: 04 00 00 00 00 00 00 00 00 00 00 00 00 00 00 00 ...  returns 0x00 (0000ms, 0589ms total)
T1A18 000:608 JLINK_ReadMemU32(0xE000ED00, 0x0001 Items, ...) -- CPU is running -- CPU_ReadMem(4 bytes @ 0xE000ED00) - Data: 31 C2 1F 41  returns 0x01 (0001ms, 0590ms total)
T1A18 000:609 JLINK_SetResetType(JLINKARM_RESET_TYPE_NORMAL)  returns JLINKARM_RESET_TYPE_NORMAL (0000ms, 0590ms total)
T1A18 000:609 JLINK_Reset() -- CPU is running -- CPU_WriteMem(4 bytes @ 0xE000EDF0) -- CPU is running -- CPU_WriteMem(4 bytes @ 0xE000EDFC) >0x35 TIF> -- CPU is running -- CPU_WriteMem(4 bytes @ 0xE000ED0C) -- CPU is running -- CPU_ReadMem(4 bytes @ 0xE000EDF0) -- CPU is running -- CPU_ReadMem(4 bytes @ 0xE000EDF0) -- CPU is running -- CPU_WriteMem(4 bytes @ 0xE000EDF0) -- CPU is running -- CPU_WriteMem(4 bytes @ 0xE000EDFC) -- CPU is running -- CPU_ReadMem(4 bytes @ 0xE000EDF0)
 -- CPU_WriteMem(4 bytes @ 0xE0002000) -- CPU_ReadMem(4 bytes @ 0xE000EDFC) -- CPU_ReadMem(4 bytes @ 0xE0001000) (0014ms, 0604ms total)
T1A18 000:623 JLINK_ReadReg(R15 (PC))  returns 0x08002DFC (0000ms, 0604ms total)
T1A18 000:623 JLINK_ReadReg(XPSR)  returns 0x01000000 (0000ms, 0604ms total)
T1A18 000:623 JLINK_Halt()  returns 0x00 (0000ms, 0604ms total)
T1A18 000:623 JLINK_IsHalted()  returns TRUE (0000ms, 0604ms total)
T1A18 000:623 JLINK_ReadMemU32(0xE000EDF0, 0x0001 Items, ...) -- CPU_ReadMem(4 bytes @ 0xE000EDF0) - Data: 03 00 03 00  returns 0x01 (0001ms, 0605ms total)
T1A18 000:624 JLINK_WriteU32(0xE000EDF0, 0xA05F0003) -- CPU_WriteMem(4 bytes @ 0xE000EDF0)  returns 0x00 (0000ms, 0605ms total)
T1A18 000:624 JLINK_WriteU32(0xE000EDFC, 0x01000000) -- CPU_WriteMem(4 bytes @ 0xE000EDFC)  returns 0x00 (0001ms, 0606ms total)
T1A18 000:625 JLINK_GetHWStatus(...)  returns 0x00 (0000ms, 0606ms total)
T1A18 000:625 JLINK_GetNumBPUnits(Type = 0xFFFFFF00)  returns 0x06 (0000ms, 0606ms total)
T1A18 000:625 JLINK_GetNumBPUnits(Type = 0xF0)  returns 0x2000 (0000ms, 0606ms total)
T1A18 000:625 JLINK_GetNumWPUnits()  returns 0x04 (0000ms, 0606ms total)
T1A18 000:626 JLINK_GetSpeed()  returns 0xFA0 (0000ms, 0606ms total)
T1A18 000:626 JLINK_ReadMemU32(0xE000E004, 0x0001 Items, ...) -- CPU_ReadMem(4 bytes @ 0xE000E004) - Data: 01 00 00 00  returns 0x01 (0000ms, 0606ms total)
T1A18 000:626 JLINK_ReadMemU32(0xE000E004, 0x0001 Items, ...) -- CPU_ReadMem(4 bytes @ 0xE000E004) - Data: 01 00 00 00  returns 0x01 (0001ms, 0607ms total)
T1A18 000:627 JLINK_WriteMem(0xE0001000, 0x001C Bytes, ...) - Data: 01 00 00 00 00 00 00 00 00 00 00 00 00 00 00 00 ... -- CPU_WriteMem(28 bytes @ 0xE0001000)  returns 0x1C (0001ms, 0608ms total)
T1A18 000:628 JLINK_ReadMem (0xE0001000, 0x001C Bytes, ...) -- CPU_ReadMem(28 bytes @ 0xE0001000) - Data: 01 00 00 40 00 00 00 00 00 00 00 00 00 00 00 00 ...  returns 0x00 (0001ms, 0609ms total)
T1A18 000:629 JLINK_ReadReg(R15 (PC))  returns 0x08002DFC (0000ms, 0609ms total)
T1A18 000:629 JLINK_ReadReg(XPSR)  returns 0x01000000 (0000ms, 0609ms total)
T1A18 000:751 JLINK_SetResetType(JLINKARM_RESET_TYPE_NORMAL)  returns JLINKARM_RESET_TYPE_NORMAL (0000ms, 0609ms total)
T1A18 000:751 JLINK_Reset() -- CPU_WriteMem(4 bytes @ 0xE000EDF0) -- CPU_WriteMem(4 bytes @ 0xE000EDFC) >0x35 TIF> -- CPU_WriteMem(4 bytes @ 0xE000ED0C) -- CPU_ReadMem(4 bytes @ 0xE000EDF0) -- CPU_ReadMem(4 bytes @ 0xE000EDF0) -- CPU_WriteMem(4 bytes @ 0xE000EDF0) -- CPU_WriteMem(4 bytes @ 0xE000EDFC) -- CPU is running -- CPU_ReadMem(4 bytes @ 0xE000EDF0) -- CPU_WriteMem(4 bytes @ 0xE0002000) -- CPU_ReadMem(4 bytes @ 0xE000EDFC) -- CPU_ReadMem(4 bytes @ 0xE0001000) (0015ms, 0624ms total)
T1A18 000:766 JLINK_ReadReg(R15 (PC))  returns 0x08002DFC (0000ms, 0624ms total)
T1A18 000:767 JLINK_ReadReg(XPSR)  returns 0x01000000 (0000ms, 0625ms total)
T1A18 000:768 JLINK_ReadMem (0x08002DFA, 0x0002 Bytes, ...) -- CPU_ReadMem(64 bytes @ 0x08002DC0) -- Updating C cache (64 bytes @ 0x08002DC0) -- Read from C cache (2 bytes @ 0x08002DFA) - Data: 00 40  returns 0x00 (0001ms, 0626ms total)
T1A18 000:769 JLINK_ReadMem (0x08002DFC, 0x003C Bytes, ...) -- CPU_ReadMem(64 bytes @ 0x08002E00) -- Updating C cache (64 bytes @ 0x08002E00) -- Read from C cache (60 bytes @ 0x08002DFC) - Data: 06 48 80 47 06 48 00 47 FE E7 FE E7 FE E7 FE E7 ...  returns 0x00 (0001ms, 0627ms total)
T1A18 000:923 JLINK_ReadMem (0x40012400, 0x004C Bytes, ...) -- CPU_ReadMem(76 bytes @ 0x40012400) - Data: 00 00 00 00 00 00 00 00 00 00 00 00 00 00 00 00 ...  returns 0x00 (0001ms, 0628ms total)
T1A18 000:924 JLINK_ReadMem (0x4001244C, 0x0004 Bytes, ...) -- CPU_ReadMem(4 bytes @ 0x4001244C) - Data: 00 00 00 00  returns 0x00 (0000ms, 0628ms total)
T1A18 000:970 JLINK_ReadMem (0x40020000, 0x0004 Bytes, ...) -- CPU_ReadMem(4 bytes @ 0x40020000) - Data: 00 00 00 00  returns 0x00 (0001ms, 0629ms total)
T1A18 000:971 JLINK_ReadMem (0x40020008, 0x000C Bytes, ...) -- CPU_ReadMem(12 bytes @ 0x40020008) - Data: 00 00 00 00 00 00 00 00 00 00 00 00  returns 0x00 (0001ms, 0630ms total)
T1A18 000:972 JLINK_ReadMem (0x40020014, 0x0004 Bytes, ...) -- CPU_ReadMem(4 bytes @ 0x40020014) - Data: 00 00 00 00  returns 0x00 (0000ms, 0630ms total)
T1A18 000:972 JLINK_ReadMem (0x4002001C, 0x000C Bytes, ...) -- CPU_ReadMem(12 bytes @ 0x4002001C) - Data: 00 00 00 00 00 00 00 00 00 00 00 00  returns 0x00 (0000ms, 0630ms total)
T1A18 000:972 JLINK_ReadMem (0x40020028, 0x0004 Bytes, ...) -- CPU_ReadMem(4 bytes @ 0x40020028) - Data: 00 00 00 00  returns 0x00 (0001ms, 0631ms total)
T1A18 000:973 JLINK_ReadMem (0x40020030, 0x000C Bytes, ...) -- CPU_ReadMem(12 bytes @ 0x40020030) - Data: 00 00 00 00 00 00 00 00 00 00 00 00  returns 0x00 (0000ms, 0631ms total)
T1A18 000:973 JLINK_ReadMem (0x4002003C, 0x0004 Bytes, ...) -- CPU_ReadMem(4 bytes @ 0x4002003C) - Data: 00 00 00 00  returns 0x00 (0000ms, 0631ms total)
T1A18 000:973 JLINK_ReadMem (0x40020044, 0x000C Bytes, ...) -- CPU_ReadMem(12 bytes @ 0x40020044) - Data: 00 00 00 00 00 00 00 00 00 00 00 00  returns 0x00 (0001ms, 0632ms total)
T1A18 000:974 JLINK_ReadMem (0x40020050, 0x0004 Bytes, ...) -- CPU_ReadMem(4 bytes @ 0x40020050) - Data: 00 00 00 00  returns 0x00 (0000ms, 0632ms total)
T1A18 000:974 JLINK_ReadMem (0x40020058, 0x000C Bytes, ...) -- CPU_ReadMem(12 bytes @ 0x40020058) - Data: 00 00 00 00 00 00 00 00 00 00 00 00  returns 0x00 (0001ms, 0633ms total)
T1A18 000:975 JLINK_ReadMem (0x40020064, 0x0004 Bytes, ...) -- CPU_ReadMem(4 bytes @ 0x40020064) - Data: 00 00 00 00  returns 0x00 (0000ms, 0633ms total)
T1A18 000:975 JLINK_ReadMem (0x4002006C, 0x000C Bytes, ...) -- CPU_ReadMem(12 bytes @ 0x4002006C) - Data: 00 00 00 00 00 00 00 00 00 00 00 00  returns 0x00 (0000ms, 0633ms total)
T1A18 000:975 JLINK_ReadMem (0x40020078, 0x0004 Bytes, ...) -- CPU_ReadMem(4 bytes @ 0x40020078) - Data: 00 00 00 00  returns 0x00 (0001ms, 0634ms total)
T1A18 000:976 JLINK_ReadMem (0x40020080, 0x000C Bytes, ...) -- CPU_ReadMem(12 bytes @ 0x40020080) - Data: 00 00 00 00 00 00 00 00 00 00 00 00  returns 0x00 (0000ms, 0634ms total)
T1A18 000:976 JLINK_ReadMem (0x4002008C, 0x0004 Bytes, ...) -- CPU_ReadMem(4 bytes @ 0x4002008C) - Data: 00 00 00 00  returns 0x00 (0000ms, 0634ms total)
T1A18 002:537 JLINK_ReadMem (0x20000230, 0x0020 Bytes, ...) -- CPU_ReadMem(128 bytes @ 0x20000200) -- Updating C cache (128 bytes @ 0x20000200) -- Read from C cache (32 bytes @ 0x20000230) - Data: A5 FF 1B 08 DE 07 0A 08 E4 07 E7 1F 00 00 00 00 ...  returns 0x00 (0002ms, 0636ms total)
T144C 002:593 JLINK_SetBPEx(Addr = 0x080001E4, Type = 0xFFFFFFF2)  returns 0x00000001 (0000ms, 0636ms total)
T144C 002:593 JLINK_Go() -- CPU_WriteMem(4 bytes @ 0xE0002000) -- CPU_ReadMem(4 bytes @ 0xE0001000) -- CPU_WriteMem(4 bytes @ 0xE0002008) -- CPU_WriteMem(4 bytes @ 0xE000200C) -- CPU_WriteMem(4 bytes @ 0xE0002010) -- CPU_WriteMem(4 bytes @ 0xE0002014) -- CPU_WriteMem(4 bytes @ 0xE0002018) -- CPU_WriteMem(4 bytes @ 0xE000201C) -- CPU_WriteMem(4 bytes @ 0xE0001004) (0004ms, 0640ms total)
T144C 002:697 JLINK_IsHalted()  returns TRUE (0002ms, 0642ms total)
T144C 002:699 JLINK_Halt()  returns 0x00 (0000ms, 0640ms total)
T144C 002:699 JLINK_IsHalted()  returns TRUE (0000ms, 0640ms total)
T144C 002:699 JLINK_IsHalted()  returns TRUE (0000ms, 0640ms total)
T144C 002:699 JLINK_IsHalted()  returns TRUE (0000ms, 0640ms total)
T144C 002:699 JLINK_ReadReg(R15 (PC))  returns 0x080001E4 (0000ms, 0640ms total)
T144C 002:699 JLINK_ReadReg(XPSR)  returns 0x61000000 (0000ms, 0640ms total)
T144C 002:699 JLINK_ClrBPEx(BPHandle = 0x00000001)  returns 0x00 (0000ms, 0640ms total)
T144C 002:699 JLINK_ReadMemU32(0xE000ED30, 0x0001 Items, ...) -- CPU_ReadMem(4 bytes @ 0xE000ED30) - Data: 03 00 00 00  returns 0x01 (0000ms, 0640ms total)
T144C 002:699 JLINK_ReadMemU32(0xE0001028, 0x0001 Items, ...) -- CPU_ReadMem(4 bytes @ 0xE0001028) - Data: 00 00 00 00  returns 0x01 (0001ms, 0641ms total)
T144C 002:700 JLINK_ReadMemU32(0xE0001038, 0x0001 Items, ...) -- CPU_ReadMem(4 bytes @ 0xE0001038) - Data: 00 02 00 00  returns 0x01 (0000ms, 0641ms total)
T144C 002:700 JLINK_ReadMemU32(0xE0001048, 0x0001 Items, ...) -- CPU_ReadMem(4 bytes @ 0xE0001048) - Data: 00 00 00 00  returns 0x01 (0000ms, 0641ms total)
T144C 002:700 JLINK_ReadMemU32(0xE0001058, 0x0001 Items, ...) -- CPU_ReadMem(4 bytes @ 0xE0001058) - Data: 00 00 00 00  returns 0x01 (0001ms, 0642ms total)
T144C 002:701 JLINK_ReadReg(R0)  returns 0x080001E5 (0000ms, 0642ms total)
T144C 002:701 JLINK_ReadReg(R1)  returns 0x20004B70 (0000ms, 0642ms total)
T144C 002:701 JLINK_ReadReg(R2)  returns 0x00000000 (0000ms, 0642ms total)
T144C 002:701 JLINK_ReadReg(R3)  returns 0x08004879 (0000ms, 0642ms total)
T144C 002:701 JLINK_ReadReg(R4)  returns 0x0800514C (0000ms, 0642ms total)
T144C 002:701 JLINK_ReadReg(R5)  returns 0x0800514C (0000ms, 0642ms total)
T144C 002:701 JLINK_ReadReg(R6)  returns 0x00000000 (0000ms, 0642ms total)
T144C 002:701 JLINK_ReadReg(R7)  returns 0x00000000 (0000ms, 0642ms total)
T144C 002:701 JLINK_ReadReg(R8)  returns 0x00000000 (0000ms, 0642ms total)
T144C 002:701 JLINK_ReadReg(R9)  returns 0x00000000 (0000ms, 0642ms total)
T144C 002:701 JLINK_ReadReg(R10)  returns 0x00000000 (0000ms, 0642ms total)
T144C 002:701 JLINK_ReadReg(R11)  returns 0x00000000 (0000ms, 0642ms total)
T144C 002:701 JLINK_ReadReg(R12)  returns 0x00000000 (0000ms, 0642ms total)
T144C 002:701 JLINK_ReadReg(R13 (SP))  returns 0x20004B70 (0000ms, 0642ms total)
T144C 002:701 JLINK_ReadReg(R14)  returns 0x08004721 (0000ms, 0642ms total)
T144C 002:701 JLINK_ReadReg(R15 (PC))  returns 0x080001E4 (0000ms, 0642ms total)
T144C 002:701 JLINK_ReadReg(XPSR)  returns 0x61000000 (0000ms, 0642ms total)
T144C 002:701 JLINK_ReadReg(MSP)  returns 0x20004B70 (0000ms, 0642ms total)
T144C 002:701 JLINK_ReadReg(PSP)  returns 0x20000A68 (0000ms, 0642ms total)
T144C 002:701 JLINK_ReadReg(CFBP)  returns 0x00000000 (0000ms, 0642ms total)
T1A18 002:703 JLINK_ReadMemU32(0xE0001004, 0x0001 Items, ...) -- CPU_ReadMem(4 bytes @ 0xE0001004) - Data: 24 BF 00 00  returns 0x01 (0000ms, 0642ms total)
T1A18 002:703 JLINK_ReadMem (0x20000230, 0x0020 Bytes, ...) -- CPU_ReadMem(128 bytes @ 0x20000200) -- Updating C cache (128 bytes @ 0x20000200) -- Read from C cache (32 bytes @ 0x20000230) - Data: 00 00 00 00 00 00 00 00 00 00 00 00 00 00 00 00 ...  returns 0x00 (0002ms, 0644ms total)
T1A18 002:705 JLINK_ReadMem (0x40012400, 0x004C Bytes, ...) -- CPU_ReadMem(76 bytes @ 0x40012400) - Data: 00 00 00 00 00 00 00 00 00 00 00 00 00 00 00 00 ...  returns 0x00 (0001ms, 0645ms total)
T1A18 002:706 JLINK_ReadMem (0x4001244C, 0x0004 Bytes, ...) -- CPU_ReadMem(4 bytes @ 0x4001244C) - Data: 00 00 00 00  returns 0x00 (0000ms, 0645ms total)
T1A18 002:706 JLINK_ReadMem (0x40020000, 0x0004 Bytes, ...) -- CPU_ReadMem(4 bytes @ 0x40020000) - Data: 00 00 00 00  returns 0x00 (0000ms, 0645ms total)
T1A18 002:706 JLINK_ReadMem (0x40020008, 0x000C Bytes, ...) -- CPU_ReadMem(12 bytes @ 0x40020008) - Data: 00 00 00 00 00 00 00 00 00 00 00 00  returns 0x00 (0001ms, 0646ms total)
T1A18 002:707 JLINK_ReadMem (0x40020014, 0x0004 Bytes, ...) -- CPU_ReadMem(4 bytes @ 0x40020014) - Data: 00 00 00 00  returns 0x00 (0000ms, 0646ms total)
T1A18 002:707 JLINK_ReadMem (0x4002001C, 0x000C Bytes, ...) -- CPU_ReadMem(12 bytes @ 0x4002001C) - Data: 00 00 00 00 00 00 00 00 00 00 00 00  returns 0x00 (0001ms, 0647ms total)
T1A18 002:708 JLINK_ReadMem (0x40020028, 0x0004 Bytes, ...) -- CPU_ReadMem(4 bytes @ 0x40020028) - Data: 00 00 00 00  returns 0x00 (0000ms, 0647ms total)
T1A18 002:708 JLINK_ReadMem (0x40020030, 0x000C Bytes, ...) -- CPU_ReadMem(12 bytes @ 0x40020030) - Data: 00 00 00 00 00 00 00 00 00 00 00 00  returns 0x00 (0001ms, 0648ms total)
T1A18 002:709 JLINK_ReadMem (0x4002003C, 0x0004 Bytes, ...) -- CPU_ReadMem(4 bytes @ 0x4002003C) - Data: 00 00 00 00  returns 0x00 (0000ms, 0648ms total)
T1A18 002:709 JLINK_ReadMem (0x40020044, 0x000C Bytes, ...) -- CPU_ReadMem(12 bytes @ 0x40020044) - Data: 00 00 00 00 00 00 00 00 00 00 00 00  returns 0x00 (0000ms, 0648ms total)
T1A18 002:709 JLINK_ReadMem (0x40020050, 0x0004 Bytes, ...) -- CPU_ReadMem(4 bytes @ 0x40020050) - Data: 00 00 00 00  returns 0x00 (0001ms, 0649ms total)
T1A18 002:710 JLINK_ReadMem (0x40020058, 0x000C Bytes, ...) -- CPU_ReadMem(12 bytes @ 0x40020058) - Data: 00 00 00 00 00 00 00 00 00 00 00 00  returns 0x00 (0000ms, 0649ms total)
T1A18 002:710 JLINK_ReadMem (0x40020064, 0x0004 Bytes, ...) -- CPU_ReadMem(4 bytes @ 0x40020064) - Data: 00 00 00 00  returns 0x00 (0000ms, 0649ms total)
T1A18 002:710 JLINK_ReadMem (0x4002006C, 0x000C Bytes, ...) -- CPU_ReadMem(12 bytes @ 0x4002006C) - Data: 00 00 00 00 00 00 00 00 00 00 00 00  returns 0x00 (0001ms, 0650ms total)
T1A18 002:711 JLINK_ReadMem (0x40020078, 0x0004 Bytes, ...) -- CPU_ReadMem(4 bytes @ 0x40020078) - Data: 00 00 00 00  returns 0x00 (0000ms, 0650ms total)
T1A18 002:711 JLINK_ReadMem (0x40020080, 0x000C Bytes, ...) -- CPU_ReadMem(12 bytes @ 0x40020080) - Data: 00 00 00 00 00 00 00 00 00 00 00 00  returns 0x00 (0001ms, 0651ms total)
T1A18 002:712 JLINK_ReadMem (0x4002008C, 0x0004 Bytes, ...) -- CPU_ReadMem(4 bytes @ 0x4002008C) - Data: 00 00 00 00  returns 0x00 (0000ms, 0651ms total)
T1A18 002:714 JLINK_ReadMem (0x08000130, 0x003C Bytes, ...) -- CPU_ReadMem(128 bytes @ 0x08000100) -- Updating C cache (128 bytes @ 0x08000100) -- Read from C cache (60 bytes @ 0x08000130) - Data: DF F8 0C D0 04 F0 E6 FA 00 48 00 47 E5 01 00 08 ...  returns 0x00 (0001ms, 0652ms total)
T1A18 002:715 JLINK_ReadMem (0x0800016C, 0x003C Bytes, ...) -- CPU_ReadMem(64 bytes @ 0x08000180) -- Updating C cache (64 bytes @ 0x08000180) -- Read from C cache (60 bytes @ 0x0800016C) - Data: 00 68 80 F3 08 88 62 B6 BF F3 4F 8F BF F3 6F 8F ...  returns 0x00 (0001ms, 0653ms total)
T1A18 002:716 JLINK_ReadMem (0x080001A8, 0x003C Bytes, ...) -- CPU_ReadMem(64 bytes @ 0x080001C0) -- Updating C cache (64 bytes @ 0x080001C0) -- Read from C cache (60 bytes @ 0x080001A8) - Data: 80 F3 11 88 BD E8 08 40 19 68 08 68 B0 E8 F0 0F ...  returns 0x00 (0001ms, 0654ms total)
T1A18 002:717 JLINK_ReadMem (0x080001E4, 0x003C Bytes, ...) -- CPU_ReadMem(64 bytes @ 0x08000200) -- Updating C cache (64 bytes @ 0x08000200) -- Read from C cache (60 bytes @ 0x080001E4) - Data: 10 E0 02 F0 8A FE 02 F0 AF FE 0B 48 00 68 0B 49 ...  returns 0x00 (0000ms, 0654ms total)
T144C 003:952 JLINK_Go() -- CPU_ReadMem(4 bytes @ 0xE0001000) -- CPU_WriteMem(4 bytes @ 0xE0002008) (0001ms, 0655ms total)
T144C 004:054 JLINK_IsHalted()  returns FALSE (0000ms, 0655ms total)
T144C 004:154 JLINK_IsHalted()  returns FALSE (0000ms, 0655ms total)
T144C 004:255 JLINK_IsHalted()  returns FALSE (0000ms, 0655ms total)
T144C 004:355 JLINK_IsHalted()  returns FALSE (0001ms, 0656ms total)
T144C 004:456 JLINK_IsHalted()  returns FALSE (0001ms, 0656ms total)
T144C 004:557 JLINK_ReadMemU32(0xE0001004, 0x0001 Items, ...) -- CPU is running -- CPU_ReadMem(4 bytes @ 0xE0001004) - Data: 98 16 98 02  returns 0x01 (0001ms, 0656ms total)
T1A18 004:558 JLINK_ReadMem (0x20000230, 0x0020 Bytes, ...) -- CPU is running -- CPU_ReadMem(32 bytes @ 0x20000230) - Data: A5 FF 1D 08 E2 07 0B 08 E4 07 EE 1F 00 00 00 00 ...  returns 0x00 (0001ms, 0657ms total)
T1A18 004:560 JLINK_ReadMem (0x40012400, 0x004C Bytes, ...) -- CPU is running -- CPU_ReadMem(76 bytes @ 0x40012400) - Data: 10 00 00 00 00 01 00 00 03 01 1E 00 F8 01 00 00 ...  returns 0x00 (0001ms, 0658ms total)
T1A18 004:561 JLINK_ReadMem (0x4001244C, 0x0004 Bytes, ...) -- CPU is running -- CPU_ReadMem(4 bytes @ 0x4001244C) - Data: E2 07 00 00  returns 0x00 (0001ms, 0659ms total)
T1A18 004:602 JLINK_ReadMem (0x40020000, 0x0004 Bytes, ...) -- CPU is running -- CPU_ReadMem(4 bytes @ 0x40020000) - Data: 05 50 00 00  returns 0x00 (0001ms, 0660ms total)
T1A18 004:603 JLINK_ReadMem (0x40020008, 0x000C Bytes, ...) -- CPU is running -- CPU_ReadMem(12 bytes @ 0x40020008) - Data: A3 25 00 00 0E 00 00 00 4C 24 01 40  returns 0x00 (0000ms, 0660ms total)
T1A18 004:603 JLINK_ReadMem (0x40020014, 0x0004 Bytes, ...) -- CPU is running -- CPU_ReadMem(4 bytes @ 0x40020014) - Data: A0 00 00 20  returns 0x00 (0000ms, 0660ms total)
T1A18 004:603 JLINK_ReadMem (0x4002001C, 0x000C Bytes, ...) -- CPU is running -- CPU_ReadMem(12 bytes @ 0x4002001C) - Data: 00 00 00 00 00 00 00 00 00 00 00 00  returns 0x00 (0001ms, 0661ms total)
T1A18 004:604 JLINK_ReadMem (0x40020028, 0x0004 Bytes, ...) -- CPU is running -- CPU_ReadMem(4 bytes @ 0x40020028) - Data: 00 00 00 00  returns 0x00 (0000ms, 0661ms total)
T1A18 004:604 JLINK_ReadMem (0x40020030, 0x000C Bytes, ...) -- CPU is running -- CPU_ReadMem(12 bytes @ 0x40020030) - Data: 00 00 00 00 00 00 00 00 00 00 00 00  returns 0x00 (0001ms, 0662ms total)
T1A18 004:605 JLINK_ReadMem (0x4002003C, 0x0004 Bytes, ...) -- CPU is running -- CPU_ReadMem(4 bytes @ 0x4002003C) - Data: 00 00 00 00  returns 0x00 (0000ms, 0662ms total)
T1A18 004:605 JLINK_ReadMem (0x40020044, 0x000C Bytes, ...) -- CPU is running -- CPU_ReadMem(12 bytes @ 0x40020044) - Data: 93 30 00 00 00 00 00 00 04 38 01 40  returns 0x00 (0000ms, 0662ms total)
T1A18 004:605 JLINK_ReadMem (0x40020050, 0x0004 Bytes, ...) -- CPU is running -- CPU_ReadMem(4 bytes @ 0x40020050) - Data: 30 02 00 20  returns 0x00 (0001ms, 0663ms total)
T1A18 004:606 JLINK_ReadMem (0x40020058, 0x000C Bytes, ...) -- CPU is running -- CPU_ReadMem(12 bytes @ 0x40020058) - Data: 00 00 00 00 00 00 00 00 00 00 00 00  returns 0x00 (0000ms, 0663ms total)
T1A18 004:606 JLINK_ReadMem (0x40020064, 0x0004 Bytes, ...) -- CPU is running -- CPU_ReadMem(4 bytes @ 0x40020064) - Data: 00 00 00 00  returns 0x00 (0000ms, 0663ms total)
T1A18 004:606 JLINK_ReadMem (0x4002006C, 0x000C Bytes, ...) -- CPU is running -- CPU_ReadMem(12 bytes @ 0x4002006C) - Data: 00 00 00 00 00 00 00 00 00 00 00 00  returns 0x00 (0000ms, 0663ms total)
T1A18 004:606 JLINK_ReadMem (0x40020078, 0x0004 Bytes, ...) -- CPU is running -- CPU_ReadMem(4 bytes @ 0x40020078) - Data: 00 00 00 00  returns 0x00 (0000ms, 0663ms total)
T1A18 004:606 JLINK_ReadMem (0x40020080, 0x000C Bytes, ...) -- CPU is running -- CPU_ReadMem(12 bytes @ 0x40020080) - Data: 00 00 00 00 00 00 00 00 00 00 00 00  returns 0x00 (0002ms, 0665ms total)
T1A18 004:608 JLINK_ReadMem (0x4002008C, 0x0004 Bytes, ...) -- CPU is running -- CPU_ReadMem(4 bytes @ 0x4002008C) - Data: 00 00 00 00  returns 0x00 (0000ms, 0665ms total)
T144C 004:609 JLINK_IsHalted()  returns FALSE (0000ms, 0665ms total)
T144C 004:710 JLINK_IsHalted()  returns FALSE (0000ms, 0665ms total)
T144C 004:810 JLINK_IsHalted()  returns FALSE (0001ms, 0666ms total)
T144C 004:911 JLINK_IsHalted()  returns FALSE (0000ms, 0665ms total)
T144C 005:011 JLINK_IsHalted()  returns FALSE (0001ms, 0666ms total)
T144C 005:112 JLINK_ReadMemU32(0xE0001004, 0x0001 Items, ...) -- CPU is running -- CPU_ReadMem(4 bytes @ 0xE0001004) - Data: F2 39 FA 04  returns 0x01 (0001ms, 0666ms total)
T1A18 005:114 JLINK_ReadMem (0x20000230, 0x0020 Bytes, ...) -- CPU is running -- CPU_ReadMem(32 bytes @ 0x20000230) - Data: A5 FF 1D 08 E2 07 0B 08 E4 07 EE 1F 00 00 00 00 ...  returns 0x00 (0000ms, 0666ms total)
T1A18 005:114 JLINK_ReadMem (0x40012400, 0x004C Bytes, ...) -- CPU is running -- CPU_ReadMem(76 bytes @ 0x40012400) - Data: 10 00 00 00 00 01 00 00 03 01 1E 00 F8 01 00 00 ...  returns 0x00 (0001ms, 0667ms total)
T1A18 005:115 JLINK_ReadMem (0x4001244C, 0x0004 Bytes, ...) -- CPU is running -- CPU_ReadMem(4 bytes @ 0x4001244C) - Data: E2 07 00 00  returns 0x00 (0001ms, 0668ms total)
T1A18 005:116 JLINK_ReadMem (0x40020000, 0x0004 Bytes, ...) -- CPU is running -- CPU_ReadMem(4 bytes @ 0x40020000) - Data: 05 50 00 00  returns 0x00 (0000ms, 0668ms total)
T1A18 005:116 JLINK_ReadMem (0x40020008, 0x000C Bytes, ...) -- CPU is running -- CPU_ReadMem(12 bytes @ 0x40020008) - Data: A3 25 00 00 13 00 00 00 4C 24 01 40  returns 0x00 (0000ms, 0668ms total)
T1A18 005:116 JLINK_ReadMem (0x40020014, 0x0004 Bytes, ...) -- CPU is running -- CPU_ReadMem(4 bytes @ 0x40020014) - Data: A0 00 00 20  returns 0x00 (0000ms, 0668ms total)
T1A18 005:116 JLINK_ReadMem (0x4002001C, 0x000C Bytes, ...) -- CPU is running -- CPU_ReadMem(12 bytes @ 0x4002001C) - Data: 00 00 00 00 00 00 00 00 00 00 00 00  returns 0x00 (0002ms, 0670ms total)
T1A18 005:118 JLINK_ReadMem (0x40020028, 0x0004 Bytes, ...) -- CPU is running -- CPU_ReadMem(4 bytes @ 0x40020028) - Data: 00 00 00 00  returns 0x00 (0000ms, 0670ms total)
T1A18 005:118 JLINK_ReadMem (0x40020030, 0x000C Bytes, ...) -- CPU is running -- CPU_ReadMem(12 bytes @ 0x40020030) - Data: 00 00 00 00 00 00 00 00 00 00 00 00  returns 0x00 (0000ms, 0670ms total)
T1A18 005:118 JLINK_ReadMem (0x4002003C, 0x0004 Bytes, ...) -- CPU is running -- CPU_ReadMem(4 bytes @ 0x4002003C) - Data: 00 00 00 00  returns 0x00 (0001ms, 0671ms total)
T1A18 005:119 JLINK_ReadMem (0x40020044, 0x000C Bytes, ...) -- CPU is running -- CPU_ReadMem(12 bytes @ 0x40020044) - Data: 93 30 00 00 00 00 00 00 04 38 01 40  returns 0x00 (0000ms, 0671ms total)
T1A18 005:119 JLINK_ReadMem (0x40020050, 0x0004 Bytes, ...) -- CPU is running -- CPU_ReadMem(4 bytes @ 0x40020050) - Data: 30 02 00 20  returns 0x00 (0000ms, 0671ms total)
T1A18 005:119 JLINK_ReadMem (0x40020058, 0x000C Bytes, ...) -- CPU is running -- CPU_ReadMem(12 bytes @ 0x40020058) - Data: 00 00 00 00 00 00 00 00 00 00 00 00  returns 0x00 (0001ms, 0672ms total)
T1A18 005:120 JLINK_ReadMem (0x40020064, 0x0004 Bytes, ...) -- CPU is running -- CPU_ReadMem(4 bytes @ 0x40020064) - Data: 00 00 00 00  returns 0x00 (0000ms, 0672ms total)
T1A18 005:120 JLINK_ReadMem (0x4002006C, 0x000C Bytes, ...) -- CPU is running -- CPU_ReadMem(12 bytes @ 0x4002006C) - Data: 00 00 00 00 00 00 00 00 00 00 00 00  returns 0x00 (0001ms, 0673ms total)
T1A18 005:121 JLINK_ReadMem (0x40020078, 0x0004 Bytes, ...) -- CPU is running -- CPU_ReadMem(4 bytes @ 0x40020078) - Data: 00 00 00 00  returns 0x00 (0000ms, 0673ms total)
T1A18 005:121 JLINK_ReadMem (0x40020080, 0x000C Bytes, ...) -- CPU is running -- CPU_ReadMem(12 bytes @ 0x40020080) - Data: 00 00 00 00 00 00 00 00 00 00 00 00  returns 0x00 (0001ms, 0674ms total)
T1A18 005:122 JLINK_ReadMem (0x4002008C, 0x0004 Bytes, ...) -- CPU is running -- CPU_ReadMem(4 bytes @ 0x4002008C) - Data: 00 00 00 00  returns 0x00 (0000ms, 0674ms total)
T144C 005:122 JLINK_IsHalted()  returns FALSE (0000ms, 0674ms total)
T144C 005:223 JLINK_IsHalted()  returns FALSE (0000ms, 0674ms total)
T144C 005:324 JLINK_IsHalted()  returns FALSE (0000ms, 0674ms total)
T144C 005:424 JLINK_IsHalted()  returns FALSE (0000ms, 0674ms total)
T144C 005:525 JLINK_IsHalted()  returns FALSE (0000ms, 0674ms total)
T144C 005:626 JLINK_ReadMemU32(0xE0001004, 0x0001 Items, ...) -- CPU is running -- CPU_ReadMem(4 bytes @ 0xE0001004) - Data: 73 2D 2E 07  returns 0x01 (0000ms, 0674ms total)
T1A18 005:626 JLINK_ReadMem (0x20000230, 0x0020 Bytes, ...) -- CPU is running -- CPU_ReadMem(32 bytes @ 0x20000230) - Data: A5 FF 1D 08 E2 07 0A 08 E4 07 ED 1F 00 00 00 00 ...  returns 0x00 (0001ms, 0675ms total)
T1A18 005:628 JLINK_ReadMem (0x40012400, 0x004C Bytes, ...) -- CPU is running -- CPU_ReadMem(76 bytes @ 0x40012400) - Data: 10 00 00 00 00 01 00 00 03 01 1E 00 F8 01 00 00 ...  returns 0x00 (0002ms, 0677ms total)
T1A18 005:630 JLINK_ReadMem (0x4001244C, 0x0004 Bytes, ...) -- CPU is running -- CPU_ReadMem(4 bytes @ 0x4001244C) - Data: 1D 08 00 00  returns 0x00 (0000ms, 0677ms total)
T1A18 005:639 JLINK_ReadMem (0x40020000, 0x0004 Bytes, ...) -- CPU is running -- CPU_ReadMem(4 bytes @ 0x40020000) - Data: 05 50 00 00  returns 0x00 (0000ms, 0677ms total)
T1A18 005:639 JLINK_ReadMem (0x40020008, 0x000C Bytes, ...) -- CPU is running -- CPU_ReadMem(12 bytes @ 0x40020008) - Data: A3 25 00 00 90 00 00 00 4C 24 01 40  returns 0x00 (0001ms, 0678ms total)
T1A18 005:640 JLINK_ReadMem (0x40020014, 0x0004 Bytes, ...) -- CPU is running -- CPU_ReadMem(4 bytes @ 0x40020014) - Data: A0 00 00 20  returns 0x00 (0000ms, 0678ms total)
T1A18 005:640 JLINK_ReadMem (0x4002001C, 0x000C Bytes, ...) -- CPU is running -- CPU_ReadMem(12 bytes @ 0x4002001C) - Data: 00 00 00 00 00 00 00 00 00 00 00 00  returns 0x00 (0001ms, 0679ms total)
T1A18 005:641 JLINK_ReadMem (0x40020028, 0x0004 Bytes, ...) -- CPU is running -- CPU_ReadMem(4 bytes @ 0x40020028) - Data: 00 00 00 00  returns 0x00 (0000ms, 0679ms total)
T1A18 005:641 JLINK_ReadMem (0x40020030, 0x000C Bytes, ...) -- CPU is running -- CPU_ReadMem(12 bytes @ 0x40020030) - Data: 00 00 00 00 00 00 00 00 00 00 00 00  returns 0x00 (0001ms, 0680ms total)
T1A18 005:642 JLINK_ReadMem (0x4002003C, 0x0004 Bytes, ...) -- CPU is running -- CPU_ReadMem(4 bytes @ 0x4002003C) - Data: 00 00 00 00  returns 0x00 (0000ms, 0680ms total)
T1A18 005:642 JLINK_ReadMem (0x40020044, 0x000C Bytes, ...) -- CPU is running -- CPU_ReadMem(12 bytes @ 0x40020044) - Data: 93 30 00 00 00 00 00 00 04 38 01 40  returns 0x00 (0001ms, 0681ms total)
T1A18 005:643 JLINK_ReadMem (0x40020050, 0x0004 Bytes, ...) -- CPU is running -- CPU_ReadMem(4 bytes @ 0x40020050) - Data: 30 02 00 20  returns 0x00 (0000ms, 0681ms total)
T1A18 005:643 JLINK_ReadMem (0x40020058, 0x000C Bytes, ...) -- CPU is running -- CPU_ReadMem(12 bytes @ 0x40020058) - Data: 00 00 00 00 00 00 00 00 00 00 00 00  returns 0x00 (0001ms, 0682ms total)
T1A18 005:644 JLINK_ReadMem (0x40020064, 0x0004 Bytes, ...) -- CPU is running -- CPU_ReadMem(4 bytes @ 0x40020064) - Data: 00 00 00 00  returns 0x00 (0000ms, 0682ms total)
T1A18 005:644 JLINK_ReadMem (0x4002006C, 0x000C Bytes, ...) -- CPU is running -- CPU_ReadMem(12 bytes @ 0x4002006C) - Data: 00 00 00 00 00 00 00 00 00 00 00 00  returns 0x00 (0001ms, 0683ms total)
T1A18 005:645 JLINK_ReadMem (0x40020078, 0x0004 Bytes, ...) -- CPU is running -- CPU_ReadMem(4 bytes @ 0x40020078) - Data: 00 00 00 00  returns 0x00 (0000ms, 0683ms total)
T1A18 005:645 JLINK_ReadMem (0x40020080, 0x000C Bytes, ...) -- CPU is running -- CPU_ReadMem(12 bytes @ 0x40020080) - Data: 00 00 00 00 00 00 00 00 00 00 00 00  returns 0x00 (0001ms, 0684ms total)
T1A18 005:646 JLINK_ReadMem (0x4002008C, 0x0004 Bytes, ...) -- CPU is running -- CPU_ReadMem(4 bytes @ 0x4002008C) - Data: 00 00 00 00  returns 0x00 (0000ms, 0684ms total)
T144C 005:648 JLINK_IsHalted()  returns FALSE (0000ms, 0684ms total)
T144C 005:748 JLINK_IsHalted()  returns FALSE (0000ms, 0684ms total)
T144C 005:849 JLINK_IsHalted()  returns FALSE (0000ms, 0684ms total)
T144C 005:950 JLINK_IsHalted()  returns FALSE (0000ms, 0684ms total)
T144C 006:050 JLINK_IsHalted()  returns FALSE (0001ms, 0685ms total)
T144C 006:151 JLINK_ReadMemU32(0xE0001004, 0x0001 Items, ...) -- CPU is running -- CPU_ReadMem(4 bytes @ 0xE0001004) - Data: 7C 26 6F 09  returns 0x01 (0000ms, 0684ms total)
T1A18 006:152 JLINK_ReadMem (0x20000230, 0x0020 Bytes, ...) -- CPU is running -- CPU_ReadMem(32 bytes @ 0x20000230) - Data: A5 FF 1D 08 E2 07 0A 08 E4 07 ED 1F 00 00 00 00 ...  returns 0x00 (0001ms, 0685ms total)
T1A18 006:153 JLINK_ReadMem (0x40012400, 0x004C Bytes, ...) -- CPU is running -- CPU_ReadMem(76 bytes @ 0x40012400) - Data: 10 00 00 00 00 01 00 00 03 01 1E 00 F8 01 00 00 ...  returns 0x00 (0001ms, 0686ms total)
T1A18 006:154 JLINK_ReadMem (0x4001244C, 0x0004 Bytes, ...) -- CPU is running -- CPU_ReadMem(4 bytes @ 0x4001244C) - Data: 0B 08 00 00  returns 0x00 (0000ms, 0686ms total)
T1A18 006:158 JLINK_ReadMem (0x40020000, 0x0004 Bytes, ...) -- CPU is running -- CPU_ReadMem(4 bytes @ 0x40020000) - Data: 05 50 00 00  returns 0x00 (0000ms, 0686ms total)
T1A18 006:158 JLINK_ReadMem (0x40020008, 0x000C Bytes, ...) -- CPU is running -- CPU_ReadMem(12 bytes @ 0x40020008) - Data: A3 25 00 00 C8 00 00 00 4C 24 01 40  returns 0x00 (0000ms, 0686ms total)
T1A18 006:158 JLINK_ReadMem (0x40020014, 0x0004 Bytes, ...) -- CPU is running -- CPU_ReadMem(4 bytes @ 0x40020014) - Data: A0 00 00 20  returns 0x00 (0001ms, 0687ms total)
T1A18 006:159 JLINK_ReadMem (0x4002001C, 0x000C Bytes, ...) -- CPU is running -- CPU_ReadMem(12 bytes @ 0x4002001C) - Data: 00 00 00 00 00 00 00 00 00 00 00 00  returns 0x00 (0000ms, 0687ms total)
T1A18 006:159 JLINK_ReadMem (0x40020028, 0x0004 Bytes, ...) -- CPU is running -- CPU_ReadMem(4 bytes @ 0x40020028) - Data: 00 00 00 00  returns 0x00 (0001ms, 0688ms total)
T1A18 006:160 JLINK_ReadMem (0x40020030, 0x000C Bytes, ...) -- CPU is running -- CPU_ReadMem(12 bytes @ 0x40020030) - Data: 00 00 00 00 00 00 00 00 00 00 00 00  returns 0x00 (0000ms, 0688ms total)
T1A18 006:160 JLINK_ReadMem (0x4002003C, 0x0004 Bytes, ...) -- CPU is running -- CPU_ReadMem(4 bytes @ 0x4002003C) - Data: 00 00 00 00  returns 0x00 (0000ms, 0688ms total)
T1A18 006:160 JLINK_ReadMem (0x40020044, 0x000C Bytes, ...) -- CPU is running -- CPU_ReadMem(12 bytes @ 0x40020044) - Data: 93 30 00 00 00 00 00 00 04 38 01 40  returns 0x00 (0001ms, 0689ms total)
T1A18 006:161 JLINK_ReadMem (0x40020050, 0x0004 Bytes, ...) -- CPU is running -- CPU_ReadMem(4 bytes @ 0x40020050) - Data: 30 02 00 20  returns 0x00 (0000ms, 0689ms total)
T1A18 006:161 JLINK_ReadMem (0x40020058, 0x000C Bytes, ...) -- CPU is running -- CPU_ReadMem(12 bytes @ 0x40020058) - Data: 00 00 00 00 00 00 00 00 00 00 00 00  returns 0x00 (0000ms, 0689ms total)
T1A18 006:161 JLINK_ReadMem (0x40020064, 0x0004 Bytes, ...) -- CPU is running -- CPU_ReadMem(4 bytes @ 0x40020064) - Data: 00 00 00 00  returns 0x00 (0001ms, 0690ms total)
T1A18 006:162 JLINK_ReadMem (0x4002006C, 0x000C Bytes, ...) -- CPU is running -- CPU_ReadMem(12 bytes @ 0x4002006C) - Data: 00 00 00 00 00 00 00 00 00 00 00 00  returns 0x00 (0001ms, 0691ms total)
T1A18 006:163 JLINK_ReadMem (0x40020078, 0x0004 Bytes, ...) -- CPU is running -- CPU_ReadMem(4 bytes @ 0x40020078) - Data: 00 00 00 00  returns 0x00 (0000ms, 0691ms total)
T1A18 006:163 JLINK_ReadMem (0x40020080, 0x000C Bytes, ...) -- CPU is running -- CPU_ReadMem(12 bytes @ 0x40020080) - Data: 00 00 00 00 00 00 00 00 00 00 00 00  returns 0x00 (0000ms, 0691ms total)
T1A18 006:163 JLINK_ReadMem (0x4002008C, 0x0004 Bytes, ...) -- CPU is running -- CPU_ReadMem(4 bytes @ 0x4002008C) - Data: 00 00 00 00  returns 0x00 (0000ms, 0691ms total)
T144C 006:164 JLINK_IsHalted()  returns FALSE (0000ms, 0691ms total)
T144C 006:265 JLINK_IsHalted()  returns FALSE (0000ms, 0691ms total)
T1A18 006:345 JLINK_ReadMem (0x20000010, 0x0002 Bytes, ...) -- CPU is running -- CPU_ReadMem(2 bytes @ 0x20000010) - Data: 1D 08  returns 0x00 (0000ms, 0691ms total)
T1A18 006:346 JLINK_ReadMem (0x20000012, 0x0002 Bytes, ...) -- CPU is running -- CPU_ReadMem(2 bytes @ 0x20000012) - Data: E1 07  returns 0x00 (0000ms, 0691ms total)
T1A18 006:346 JLINK_ReadMem (0x20000014, 0x0002 Bytes, ...) -- CPU is running -- CPU_ReadMem(2 bytes @ 0x20000014) - Data: 0B 08  returns 0x00 (0000ms, 0691ms total)
T1A18 006:346 JLINK_ReadMem (0x20000016, 0x0002 Bytes, ...) -- CPU is running -- CPU_ReadMem(2 bytes @ 0x20000016) - Data: E4 07  returns 0x00 (0001ms, 0692ms total)
T1A18 006:347 JLINK_ReadMem (0x20000010, 0x0002 Bytes, ...) -- CPU is running -- CPU_ReadMem(2 bytes @ 0x20000010) - Data: 1D 08  returns 0x00 (0001ms, 0693ms total)
T1A18 006:348 JLINK_ReadMem (0x20000012, 0x0002 Bytes, ...) -- CPU is running -- CPU_ReadMem(2 bytes @ 0x20000012) - Data: E1 07  returns 0x00 (0000ms, 0693ms total)
T1A18 006:348 JLINK_ReadMem (0x20000014, 0x0002 Bytes, ...) -- CPU is running -- CPU_ReadMem(2 bytes @ 0x20000014) - Data: 0A 08  returns 0x00 (0001ms, 0694ms total)
T1A18 006:349 JLINK_ReadMem (0x20000016, 0x0002 Bytes, ...) -- CPU is running -- CPU_ReadMem(2 bytes @ 0x20000016) - Data: E4 07  returns 0x00 (0000ms, 0694ms total)
T1A18 006:361 JLINK_ReadMem (0x20000010, 0x0002 Bytes, ...) -- CPU is running -- CPU_ReadMem(2 bytes @ 0x20000010) - Data: 1D 08  returns 0x00 (0001ms, 0695ms total)
T1A18 006:362 JLINK_ReadMem (0x20000012, 0x0002 Bytes, ...) -- CPU is running -- CPU_ReadMem(2 bytes @ 0x20000012) - Data: E2 07  returns 0x00 (0000ms, 0695ms total)
T1A18 006:363 JLINK_ReadMem (0x20000014, 0x0002 Bytes, ...) -- CPU is running -- CPU_ReadMem(2 bytes @ 0x20000014) - Data: 0A 08  returns 0x00 (0000ms, 0695ms total)
T1A18 006:363 JLINK_ReadMem (0x20000016, 0x0002 Bytes, ...) -- CPU is running -- CPU_ReadMem(2 bytes @ 0x20000016) - Data: E4 07  returns 0x00 (0000ms, 0695ms total)
T144C 006:365 JLINK_IsHalted()  returns FALSE (0001ms, 0696ms total)
T144C 006:466 JLINK_IsHalted()  returns FALSE (0000ms, 0695ms total)
T144C 006:567 JLINK_IsHalted()  returns FALSE (0000ms, 0695ms total)
T144C 006:668 JLINK_ReadMemU32(0xE0001004, 0x0001 Items, ...) -- CPU is running -- CPU_ReadMem(4 bytes @ 0xE0001004) - Data: 11 D5 A6 0B  returns 0x01 (0000ms, 0695ms total)
T1A18 006:668 JLINK_ReadMem (0x20000010, 0x0002 Bytes, ...) -- CPU is running -- CPU_ReadMem(2 bytes @ 0x20000010) - Data: 1D 08  returns 0x00 (0001ms, 0696ms total)
T1A18 006:669 JLINK_ReadMem (0x20000012, 0x0002 Bytes, ...) -- CPU is running -- CPU_ReadMem(2 bytes @ 0x20000012) - Data: E2 07  returns 0x00 (0000ms, 0696ms total)
T1A18 006:669 JLINK_ReadMem (0x20000014, 0x0002 Bytes, ...) -- CPU is running -- CPU_ReadMem(2 bytes @ 0x20000014) - Data: 0A 08  returns 0x00 (0000ms, 0696ms total)
T1A18 006:669 JLINK_ReadMem (0x20000016, 0x0002 Bytes, ...) -- CPU is running -- CPU_ReadMem(2 bytes @ 0x20000016) - Data: E4 07  returns 0x00 (0001ms, 0697ms total)
T1A18 006:670 JLINK_ReadMem (0x20000230, 0x0020 Bytes, ...) -- CPU is running -- CPU_ReadMem(32 bytes @ 0x20000230) - Data: A5 FF 1D 08 E1 07 0A 08 E4 07 EC 1F 00 00 00 00 ...  returns 0x00 (0001ms, 0698ms total)
T1A18 006:672 JLINK_ReadMem (0x40012400, 0x004C Bytes, ...) -- CPU is running -- CPU_ReadMem(76 bytes @ 0x40012400) - Data: 10 00 00 00 00 01 00 00 03 01 1E 00 F8 01 00 00 ...  returns 0x00 (0001ms, 0699ms total)
T1A18 006:673 JLINK_ReadMem (0x4001244C, 0x0004 Bytes, ...) -- CPU is running -- CPU_ReadMem(4 bytes @ 0x4001244C) - Data: 0B 08 00 00  returns 0x00 (0000ms, 0699ms total)
T1A18 006:674 JLINK_ReadMem (0x40020000, 0x0004 Bytes, ...) -- CPU is running -- CPU_ReadMem(4 bytes @ 0x40020000) - Data: 05 50 00 00  returns 0x00 (0000ms, 0699ms total)
T1A18 006:674 JLINK_ReadMem (0x40020008, 0x000C Bytes, ...) -- CPU is running -- CPU_ReadMem(12 bytes @ 0x40020008) - Data: A3 25 00 00 64 00 00 00 4C 24 01 40  returns 0x00 (0001ms, 0700ms total)
T1A18 006:675 JLINK_ReadMem (0x40020014, 0x0004 Bytes, ...) -- CPU is running -- CPU_ReadMem(4 bytes @ 0x40020014) - Data: A0 00 00 20  returns 0x00 (0000ms, 0700ms total)
T1A18 006:675 JLINK_ReadMem (0x4002001C, 0x000C Bytes, ...) -- CPU is running -- CPU_ReadMem(12 bytes @ 0x4002001C) - Data: 00 00 00 00 00 00 00 00 00 00 00 00  returns 0x00 (0000ms, 0700ms total)
T1A18 006:675 JLINK_ReadMem (0x40020028, 0x0004 Bytes, ...) -- CPU is running -- CPU_ReadMem(4 bytes @ 0x40020028) - Data: 00 00 00 00  returns 0x00 (0001ms, 0701ms total)
T1A18 006:676 JLINK_ReadMem (0x40020030, 0x000C Bytes, ...) -- CPU is running -- CPU_ReadMem(12 bytes @ 0x40020030) - Data: 00 00 00 00 00 00 00 00 00 00 00 00  returns 0x00 (0000ms, 0701ms total)
T1A18 006:676 JLINK_ReadMem (0x4002003C, 0x0004 Bytes, ...) -- CPU is running -- CPU_ReadMem(4 bytes @ 0x4002003C) - Data: 00 00 00 00  returns 0x00 (0001ms, 0702ms total)
T1A18 006:677 JLINK_ReadMem (0x40020044, 0x000C Bytes, ...) -- CPU is running -- CPU_ReadMem(12 bytes @ 0x40020044) - Data: 93 30 00 00 00 00 00 00 04 38 01 40  returns 0x00 (0000ms, 0702ms total)
T1A18 006:677 JLINK_ReadMem (0x40020050, 0x0004 Bytes, ...) -- CPU is running -- CPU_ReadMem(4 bytes @ 0x40020050) - Data: 30 02 00 20  returns 0x00 (0001ms, 0703ms total)
T1A18 006:678 JLINK_ReadMem (0x40020058, 0x000C Bytes, ...) -- CPU is running -- CPU_ReadMem(12 bytes @ 0x40020058) - Data: 00 00 00 00 00 00 00 00 00 00 00 00  returns 0x00 (0000ms, 0703ms total)
T1A18 006:678 JLINK_ReadMem (0x40020064, 0x0004 Bytes, ...) -- CPU is running -- CPU_ReadMem(4 bytes @ 0x40020064) - Data: 00 00 00 00  returns 0x00 (0000ms, 0703ms total)
T1A18 006:678 JLINK_ReadMem (0x4002006C, 0x000C Bytes, ...) -- CPU is running -- CPU_ReadMem(12 bytes @ 0x4002006C) - Data: 00 00 00 00 00 00 00 00 00 00 00 00  returns 0x00 (0001ms, 0704ms total)
T1A18 006:679 JLINK_ReadMem (0x40020078, 0x0004 Bytes, ...) -- CPU is running -- CPU_ReadMem(4 bytes @ 0x40020078) - Data: 00 00 00 00  returns 0x00 (0000ms, 0704ms total)
T1A18 006:679 JLINK_ReadMem (0x40020080, 0x000C Bytes, ...) -- CPU is running -- CPU_ReadMem(12 bytes @ 0x40020080) - Data: 00 00 00 00 00 00 00 00 00 00 00 00  returns 0x00 (0001ms, 0705ms total)
T1A18 006:680 JLINK_ReadMem (0x4002008C, 0x0004 Bytes, ...) -- CPU is running -- CPU_ReadMem(4 bytes @ 0x4002008C) - Data: 00 00 00 00  returns 0x00 (0000ms, 0705ms total)
T144C 006:681 JLINK_IsHalted()  returns FALSE (0000ms, 0705ms total)
T144C 006:781 JLINK_IsHalted()  returns FALSE (0000ms, 0705ms total)
T144C 006:882 JLINK_IsHalted()  returns FALSE (0000ms, 0705ms total)
T144C 006:983 JLINK_IsHalted()  returns FALSE (0001ms, 0706ms total)
T144C 007:084 JLINK_IsHalted()  returns FALSE (0000ms, 0705ms total)
T144C 007:185 JLINK_ReadMemU32(0xE0001004, 0x0001 Items, ...) -- CPU is running -- CPU_ReadMem(4 bytes @ 0xE0001004) - Data: 03 05 DF 0D  returns 0x01 (0000ms, 0705ms total)
T1A18 007:185 JLINK_ReadMem (0x20000010, 0x0002 Bytes, ...) -- CPU is running -- CPU_ReadMem(2 bytes @ 0x20000010) - Data: 1D 08  returns 0x00 (0001ms, 0706ms total)
T1A18 007:186 JLINK_ReadMem (0x20000012, 0x0002 Bytes, ...) -- CPU is running -- CPU_ReadMem(2 bytes @ 0x20000012) - Data: E2 07  returns 0x00 (0000ms, 0706ms total)
T1A18 007:186 JLINK_ReadMem (0x20000014, 0x0002 Bytes, ...) -- CPU is running -- CPU_ReadMem(2 bytes @ 0x20000014) - Data: 0A 08  returns 0x00 (0001ms, 0707ms total)
T1A18 007:187 JLINK_ReadMem (0x20000016, 0x0002 Bytes, ...) -- CPU is running -- CPU_ReadMem(2 bytes @ 0x20000016) - Data: E4 07  returns 0x00 (0000ms, 0707ms total)
T1A18 007:189 JLINK_ReadMem (0x20000230, 0x0020 Bytes, ...) -- CPU is running -- CPU_ReadMem(32 bytes @ 0x20000230) - Data: A5 FF 1D 08 E2 07 0B 08 E4 07 EE 1F 00 00 00 00 ...  returns 0x00 (0000ms, 0707ms total)
T1A18 007:191 JLINK_ReadMem (0x40012400, 0x004C Bytes, ...) -- CPU is running -- CPU_ReadMem(76 bytes @ 0x40012400) - Data: 10 00 00 00 00 01 00 00 03 01 1E 00 F8 01 00 00 ...  returns 0x00 (0001ms, 0708ms total)
T1A18 007:192 JLINK_ReadMem (0x4001244C, 0x0004 Bytes, ...) -- CPU is running -- CPU_ReadMem(4 bytes @ 0x4001244C) - Data: E5 07 00 00  returns 0x00 (0000ms, 0708ms total)
T1A18 007:201 JLINK_ReadMem (0x40020000, 0x0004 Bytes, ...) -- CPU is running -- CPU_ReadMem(4 bytes @ 0x40020000) - Data: 05 50 00 00  returns 0x00 (0001ms, 0709ms total)
T1A18 007:202 JLINK_ReadMem (0x40020008, 0x000C Bytes, ...) -- CPU is running -- CPU_ReadMem(12 bytes @ 0x40020008) - Data: A3 25 00 00 6D 00 00 00 4C 24 01 40  returns 0x00 (0000ms, 0709ms total)
T1A18 007:202 JLINK_ReadMem (0x40020014, 0x0004 Bytes, ...) -- CPU is running -- CPU_ReadMem(4 bytes @ 0x40020014) - Data: A0 00 00 20  returns 0x00 (0001ms, 0710ms total)
T1A18 007:203 JLINK_ReadMem (0x4002001C, 0x000C Bytes, ...) -- CPU is running -- CPU_ReadMem(12 bytes @ 0x4002001C) - Data: 00 00 00 00 00 00 00 00 00 00 00 00  returns 0x00 (0000ms, 0710ms total)
T1A18 007:203 JLINK_ReadMem (0x40020028, 0x0004 Bytes, ...) -- CPU is running -- CPU_ReadMem(4 bytes @ 0x40020028) - Data: 00 00 00 00  returns 0x00 (0001ms, 0711ms total)
T1A18 007:204 JLINK_ReadMem (0x40020030, 0x000C Bytes, ...) -- CPU is running -- CPU_ReadMem(12 bytes @ 0x40020030) - Data: 00 00 00 00 00 00 00 00 00 00 00 00  returns 0x00 (0000ms, 0711ms total)
T1A18 007:204 JLINK_ReadMem (0x4002003C, 0x0004 Bytes, ...) -- CPU is running -- CPU_ReadMem(4 bytes @ 0x4002003C) - Data: 00 00 00 00  returns 0x00 (0001ms, 0712ms total)
T1A18 007:205 JLINK_ReadMem (0x40020044, 0x000C Bytes, ...) -- CPU is running -- CPU_ReadMem(12 bytes @ 0x40020044) - Data: 93 30 00 00 00 00 00 00 04 38 01 40  returns 0x00 (0000ms, 0712ms total)
T1A18 007:205 JLINK_ReadMem (0x40020050, 0x0004 Bytes, ...) -- CPU is running -- CPU_ReadMem(4 bytes @ 0x40020050) - Data: 30 02 00 20  returns 0x00 (0001ms, 0713ms total)
T1A18 007:206 JLINK_ReadMem (0x40020058, 0x000C Bytes, ...) -- CPU is running -- CPU_ReadMem(12 bytes @ 0x40020058) - Data: 00 00 00 00 00 00 00 00 00 00 00 00  returns 0x00 (0000ms, 0713ms total)
T1A18 007:206 JLINK_ReadMem (0x40020064, 0x0004 Bytes, ...) -- CPU is running -- CPU_ReadMem(4 bytes @ 0x40020064) - Data: 00 00 00 00  returns 0x00 (0000ms, 0713ms total)
T1A18 007:206 JLINK_ReadMem (0x4002006C, 0x000C Bytes, ...) -- CPU is running -- CPU_ReadMem(12 bytes @ 0x4002006C) - Data: 00 00 00 00 00 00 00 00 00 00 00 00  returns 0x00 (0001ms, 0714ms total)
T1A18 007:207 JLINK_ReadMem (0x40020078, 0x0004 Bytes, ...) -- CPU is running -- CPU_ReadMem(4 bytes @ 0x40020078) - Data: 00 00 00 00  returns 0x00 (0000ms, 0714ms total)
T1A18 007:207 JLINK_ReadMem (0x40020080, 0x000C Bytes, ...) -- CPU is running -- CPU_ReadMem(12 bytes @ 0x40020080) - Data: 00 00 00 00 00 00 00 00 00 00 00 00  returns 0x00 (0001ms, 0715ms total)
T1A18 007:208 JLINK_ReadMem (0x4002008C, 0x0004 Bytes, ...) -- CPU is running -- CPU_ReadMem(4 bytes @ 0x4002008C) - Data: 00 00 00 00  returns 0x00 (0000ms, 0715ms total)
T144C 007:209 JLINK_IsHalted()  returns FALSE (0001ms, 0716ms total)
T144C 007:310 JLINK_IsHalted()  returns FALSE (0000ms, 0715ms total)
T144C 007:411 JLINK_IsHalted()  returns FALSE (0000ms, 0715ms total)
T144C 007:511 JLINK_IsHalted()  returns FALSE (0000ms, 0715ms total)
T144C 007:612 JLINK_IsHalted()  returns FALSE (0000ms, 0715ms total)
T144C 007:713 JLINK_ReadMemU32(0xE0001004, 0x0001 Items, ...) -- CPU is running -- CPU_ReadMem(4 bytes @ 0xE0001004) - Data: 9A 36 23 10  returns 0x01 (0000ms, 0715ms total)
T1A18 007:714 JLINK_ReadMem (0x20000010, 0x0002 Bytes, ...) -- CPU is running -- CPU_ReadMem(2 bytes @ 0x20000010) - Data: 1D 08  returns 0x00 (0000ms, 0715ms total)
T1A18 007:714 JLINK_ReadMem (0x20000012, 0x0002 Bytes, ...) -- CPU is running -- CPU_ReadMem(2 bytes @ 0x20000012) - Data: E2 07  returns 0x00 (0001ms, 0716ms total)
T1A18 007:715 JLINK_ReadMem (0x20000014, 0x0002 Bytes, ...) -- CPU is running -- CPU_ReadMem(2 bytes @ 0x20000014) - Data: 0A 08  returns 0x00 (0000ms, 0716ms total)
T1A18 007:715 JLINK_ReadMem (0x20000016, 0x0002 Bytes, ...) -- CPU is running -- CPU_ReadMem(2 bytes @ 0x20000016) - Data: E4 07  returns 0x00 (0000ms, 0716ms total)
T1A18 007:717 JLINK_ReadMem (0x20000230, 0x0020 Bytes, ...) -- CPU is running -- CPU_ReadMem(32 bytes @ 0x20000230) - Data: A5 FF 1D 08 E1 07 0A 08 E4 07 EC 1F 00 00 00 00 ...  returns 0x00 (0000ms, 0716ms total)
